"Freq [GHz]","Phi [deg]","Theta [deg]","dB(RealizedGainPhi) []","dB(RealizedGainTheta) []"
6.6,0,-180,-34.1887788945713,-24.8298421218815
6.6,0,-178,-34.3945387392778,-27.4457621373841
6.6,0,-176,-34.6767456372163,-21.5559478950972
6.6,0,-174,-35.0343960116991,-17.3388210657455
6.6,0,-172,-35.4669012834714,-14.4804968727447
6.6,0,-170,-35.9739417810094,-12.3767653332969
6.6,0,-168,-36.5551758154065,-10.7422098592278
6.6,0,-166,-37.2096761494306,-9.42784861311629
6.6,0,-164,-37.9348766296232,-8.34722487042613
6.6,0,-162,-38.7246737081056,-7.44591374287873
6.6,0,-160,-39.566160363352,-6.68745693131945
6.6,0,-158,-40.4344292315367,-6.04621321088381
6.6,0,-156,-41.2855227374095,-5.5034288567732
6.6,0,-154,-42.0501935185172,-5.04493714221037
6.6,0,-152,-42.6366330787555,-4.65973959403281
6.6,0,-150,-42.9538619385829,-4.33909148930071
6.6,0,-148,-42.9538602265964,-4.07588891655764
6.6,0,-146,-42.6603623948013,-3.86424280648075
6.6,0,-144,-42.1535845841358,-3.69917215324917
6.6,0,-142,-41.5277547611541,-3.57637469210038
6.6,0,-140,-40.8595012291942,-3.49204836595831
6.6,0,-138,-40.199099438276,-3.44274594021504
6.6,0,-136,-39.5748133262418,-3.42525072219466
6.6,0,-134,-39.0001430908144,-3.43646496783278
6.6,0,-132,-38.4797199536014,-3.47330508205258
6.6,0,-130,-38.0131828896341,-3.53259971276782
6.6,0,-128,-37.5975029540278,-3.61098872944811
6.6,0,-126,-37.2283185934787,-3.70482322944782
6.6,0,-124,-36.9006899546719,-3.81006945214395
6.6,0,-122,-36.6095253033389,-3.92222304974482
6.6,0,-120,-36.3498264583807,-4.03624462197399
6.6,0,-118,-36.1168355760612,-4.14653242726187
6.6,0,-116,-35.9061282144405,-4.24695270404347
6.6,0,-114,-35.7136763645399,-4.33095009501898
6.6,0,-112,-35.5358932020005,-4.39175738638991
6.6,0,-110,-35.3696647353601,-4.42271212748837
6.6,0,-108,-35.2123700816196,-4.41766627717128
6.6,0,-106,-35.0618905309682,-4.3714464761953
6.6,0,-104,-34.9166071319042,-4.28029514733317
6.6,0,-102,-34.7753867659877,-4.14220872515903
6.6,0,-100,-34.6375572608501,-3.95709953621111
6.6,0,-98,-34.5028727689563,-3.72674359016104
6.6,0,-96,-34.3714712417478,-3.45452656064471
6.6,0,-94,-34.2438262397242,-3.1450454362237
6.6,0,-92,-34.1206954844956,-2.80364731482942
6.6,0,-90,-34.0030684785769,-2.43598443686202
6.6,0,-88,-33.8921152336932,-2.0476425056118
6.6,0,-86,-33.7891377239416,-1.6438700269977
6.6,0,-84,-33.695525188318,-1.22941065221666
6.6,0,-82,-33.6127139121722,-0.808423812141767
6.6,0,-80,-33.5421516664354,-0.384471661798258
6.6,0,-78,-33.4852666040548,0.0394499769103796
6.6,0,-76,-33.4434401131944,0.460855495891954
6.6,0,-74,-33.4179829003184,0.877702210967026
6.6,0,-72,-33.4101134086771,1.28832128166583
6.6,0,-70,-33.4209375516244,1.69135247024148
6.6,0,-68,-33.4514286403907,2.08568564737912
6.6,0,-66,-33.5024063032327,2.47041014537066
6.6,0,-64,-33.5745131271939,2.84477196121452
6.6,0,-62,-33.6681877171274,3.20813821384079
6.6,0,-60,-33.7836328867916,3.5599679895589
6.6,0,-58,-33.920777821436,3.8997886406749
6.6,0,-56,-34.079233353601,4.22717664658504
6.6,0,-54,-34.2582400779666,4.54174224778931
6.6,0,-52,-34.456610034028,4.84311718628796
6.6,0,-50,-34.6726642688934,5.1309450104538
6.6,0,-48,-34.9041709125355,5.40487351780114
6.6,0,-46,-35.1482915340031,5.66454900991149
6.6,0,-44,-35.4015473730506,5.90961211830154
6.6,0,-42,-35.6598210301648,6.1396950282737
6.6,0,-40,-35.9184121996191,6.35441998079175
6.6,0,-38,-36.1721661525539,6.55339897165349
6.6,0,-36,-36.4156885086837,6.73623459435422
6.6,0,-34,-36.6436473057842,6.90252198977392
6.6,0,-32,-36.8511433364122,7.05185187389974
6.6,0,-30,-37.0341057030286,7.1838146159266
6.6,0,-28,-37.1896493288121,7.29800533494248
6.6,0,-26,-37.3163246075453,7.39402997563379
6.6,0,-24,-37.4142033726603,7.47151231357025
6.6,0,-22,-37.4847786055615,7.53010183000252
6.6,0,-20,-37.5306971025219,7.56948238580947
6.6,0,-18,-37.5553795210115,7.58938161495073
6.6,0,-16,-37.5625992745807,7.58958094968934
6.6,0,-14,-37.5560881602616,7.56992618249804
6.6,0,-12,-37.5392184304398,7.53033846179556
6.6,0,-10,-37.5147878207737,7.47082560856351
6.6,0,-8,-37.4849136367084,7.39149362582046
6.6,0,-6,-37.451027958591,7.29255824957069
6.6,0,-4,-37.4139581047115,7.17435635443802
6.6,0,-2,-37.3740725058454,7.0373569758543
6.6,0,0,-37.3314698290149,6.8821716399327
6.6,0,2,-37.2861873341447,6.70956359977642
6.6,0,4,-37.2384032041024,6.520455463064
6.6,0,6,-37.188608079384,6.31593456425373
6.6,0,8,-37.1377245302483,6.09725529520034
6.6,0,10,-37.0871602333432,5.86583747734321
6.6,0,12,-37.0387903850411,5.62325976273489
6.6,0,14,-36.9948753532893,5.37124702497516
6.6,0,16,-36.9579282505536,5.11165078667059
6.6,0,18,-36.9305520592439,4.84642197114366
6.6,0,20,-36.9152664868753,4.57757569862503
6.6,0,22,-36.9143415598167,4.30714848531162
6.6,0,24,-36.9296496479335,4.0371490244859
6.6,0,26,-36.9625418937896,3.76950465923484
6.6,0,28,-37.0137502770967,3.50600656912783
6.6,0,30,-37.0833135603805,3.24825741957564
6.6,0,32,-37.1705243758958,2.99762558270561
6.6,0,34,-37.2738956076824,2.75520988804385
6.6,0,36,-37.3911466811611,2.52181814012101
6.6,0,38,-37.5192139401794,2.2979614064886
6.6,0,40,-37.6542933002808,2.08386451164746
6.6,0,42,-37.7919267837494,1.87949153171932
6.6,0,44,-37.9271458471154,1.68458365143996
6.6,0,46,-38.054681705009,1.49870574602307
6.6,0,48,-38.1692444108803,1.32129760609433
6.6,0,50,-38.2658578295547,1.15172583069835
6.6,0,52,-38.3402190024038,0.989332963100644
6.6,0,54,-38.3890332308098,0.833481267671862
6.6,0,56,-38.4102680882382,0.683589463599363
6.6,0,58,-38.4032768515099,0.539161591719619
6.6,0,60,-38.368765412974,0.399807894614027
6.6,0,62,-38.3086100856192,0.265258092191882
6.6,0,64,-38.2255653498087,0.135367735840985
6.6,0,66,-38.1229198050507,0.0101184549917309
6.6,0,68,-38.0041606785404,-0.110387082924049
6.6,0,70,-37.8726947707004,-0.225934745031372
6.6,0,72,-37.7316537231944,-0.336212380245761
6.6,0,74,-37.5837912839251,-0.440826573537416
6.6,0,76,-37.4314645444713,-0.539322199297274
6.6,0,78,-37.2766815141415,-0.63120428178833
6.6,0,80,-37.1211932627427,-0.715961639924374
6.6,0,82,-36.9666087376031,-0.793091722829441
6.6,0,84,-36.8145128121176,-0.86212594648902
6.6,0,86,-36.6665721103874,-0.922654741194389
6.6,0,88,-36.5246179654947,-0.974351438842826
6.6,0,90,-36.3907009505345,-1.01699409303947
6.6,0,92,-36.2671162440641,-1.05048435399341
6.6,0,94,-36.1564031556207,-1.07486262712815
6.6,0,96,-36.0613250597259,-1.09031893073424
6.6,0,98,-35.9848376030464,-1.09719912287437
6.6,0,100,-35.9300534544599,-1.09600646832391
6.6,0,102,-35.9002113788153,-1.08739883126787
6.6,0,104,-35.8986564722497,-1.07218207400267
6.6,0,106,-35.9288374507343,-1.05130048365227
6.6,0,108,-35.9943263125083,-1.02582521327665
6.6,0,110,-36.0988657733713,-0.996941797461425
6.6,0,112,-36.2464507903574,-0.965937784890786
6.6,0,114,-36.4414524072229,-0.934191432448858
6.6,0,116,-36.688795302729,-0.903162246692991
6.6,0,118,-36.9942052173602,-0.874383963670824
6.6,0,120,-37.3645496518193,-0.84946035276835
6.6,0,122,-37.8083062306138,-0.83006403845094
6.6,0,124,-38.3362100805687,-0.817938375362723
6.6,0,126,-38.9621573855114,-0.814902302445648
6.6,0,128,-39.7044786448782,-0.822858050942628
6.6,0,130,-40.5877324071061,-0.84380159581143
6.6,0,132,-41.6451411065147,-0.879835823996497
6.6,0,134,-42.9213619709504,-0.933186549051998
6.6,0,136,-44.4728793001728,-1.00622173387115
6.6,0,138,-46.3513149409932,-1.10147459982241
6.6,0,140,-48.4990759091623,-1.2216717171689
6.6,0,142,-50.3270124819561,-1.36976771694268
6.6,0,144,-50.3454134873862,-1.54898898797086
6.6,0,146,-48.3761725621496,-1.76288970722944
6.6,0,148,-45.9293025338521,-2.01542493337899
6.6,0,150,-43.7294719969508,-2.31104749661643
6.6,0,152,-41.8760715163441,-2.65483841655955
6.6,0,154,-40.326560918727,-3.05268520841921
6.6,0,156,-39.0268194879237,-3.51152980278037
6.6,0,158,-37.9333801905986,-4.03971989781083
6.6,0,160,-37.0140081281586,-4.64751810531993
6.6,0,162,-36.24502927619,-5.3478594938881
6.6,0,164,-35.6088746784698,-6.1575149005673
6.6,0,166,-35.0922864090949,-7.09894673472742
6.6,0,168,-34.685076972919,-8.20340985672643
6.6,0,170,-34.3792814891207,-9.51643623991322
6.6,0,172,-34.1685780692205,-11.1082468784499
6.6,0,174,-34.0478910814252,-13.0953465649145
6.6,0,176,-34.0131206738379,-15.6904033853323
6.6,0,178,-34.0609607226127,-19.3288368789481
6.6,0,180,-34.1887788945713,-24.8298421218815
6.6,90.0000000000002,-180,-24.8298421218815,-34.1887788945712
6.6,90.0000000000002,-178,-25.143201199585,-41.8940657931555
6.6,90.0000000000002,-176,-25.6222603974085,-46.4810116676127
6.6,90.0000000000002,-174,-26.2809474745364,-35.9721301865322
6.6,90.0000000000002,-172,-27.1203270761181,-31.2916612413384
6.6,90.0000000000002,-170,-28.1031702202088,-28.3291474129077
6.6,90.0000000000002,-168,-29.092327045366,-26.1971528785479
6.6,90.0000000000002,-166,-29.7600400870033,-24.562387351061
6.6,90.0000000000002,-164,-29.651317998359,-23.2633455938714
6.6,90.0000000000002,-162,-28.6235572840953,-22.2093142029464
6.6,90.0000000000002,-160,-27.0364361528084,-21.3441013577878
6.6,90.0000000000002,-158,-25.309091230225,-20.6303566813886
6.6,90.0000000000002,-156,-23.6605578511124,-20.041882471729
6.6,90.0000000000002,-154,-22.1635788681877,-19.5595008755227
6.6,90.0000000000002,-152,-20.8281163697503,-19.1686706073678
6.6,90.0000000000002,-150,-19.6429481857265,-18.8580333152981
6.6,90.0000000000002,-148,-18.5916315023163,-18.6184845584334
6.6,90.0000000000002,-146,-17.6579352047095,-18.4425549760568
6.6,90.0000000000002,-144,-16.827401336612,-18.3239811801104
6.6,90.0000000000002,-142,-16.0875608686742,-18.2573948723629
6.6,90.0000000000002,-140,-15.4277233084044,-18.2380853350111
6.6,90.0000000000002,-138,-14.8386675089852,-18.2618053931771
6.6,90.0000000000002,-136,-14.31234426618,-18.3245994915491
6.6,90.0000000000002,-134,-13.8416224629894,-18.4226374879481
6.6,90.0000000000002,-132,-13.4200828106325,-18.5520408260281
6.6,90.0000000000002,-130,-13.0418545283623,-18.708690144259
6.6,90.0000000000002,-128,-12.7014885258928,-18.8880063359708
6.6,90.0000000000002,-126,-12.3938612098316,-19.0847021381278
6.6,90.0000000000002,-124,-12.1141041889687,-19.2925105634206
6.6,90.0000000000002,-122,-11.8575562586816,-19.50391240538
6.6,90.0000000000002,-120,-11.6197348791498,-19.7099097276256
6.6,90.0000000000002,-118,-11.3963248632926,-19.8999250276704
6.6,90.0000000000002,-116,-11.1831821609634,-20.0619388742355
6.6,90.0000000000002,-114,-10.9763505036747,-20.182992319717
6.6,90.0000000000002,-112,-10.7720883274151,-20.250142073193
6.6,90.0000000000002,-110,-10.5669029205725,-20.2518369610479
6.6,90.0000000000002,-108,-10.3575882792258,-20.1794926379109
6.6,90.0000000000002,-106,-10.141262838028,-20.0288590946387
6.6,90.0000000000002,-104,-9.91540321638342,-19.800734814596
6.6,90.0000000000002,-102,-9.67787046903671,-19.5007644590433
6.6,90.0000000000002,-100,-9.42692607798727,-19.1383923176566
6.6,90.0000000000002,-98,-9.16123600228972,-18.7253360083005
6.6,90.0000000000002,-96,-8.87986236845908,-18.2740348710426
6.6,90.0000000000002,-94,-8.5822436446738,-17.796412942297
6.6,90.0000000000002,-92,-8.2681652046359,-17.3030956209023
6.6,90.0000000000002,-90,-7.93772290619524,-16.8030518114174
6.6,90.0000000000002,-88,-7.59128261743261,-16.3035491564795
6.6,90.0000000000002,-86,-7.22943853462343,-15.8102970971509
6.6,90.0000000000002,-84,-6.85297273583207,-15.327677177958
6.6,90.0000000000002,-82,-6.4628178213933,-14.8589943352212
6.6,90.0000000000002,-80,-6.06002383303774,-14.4067123988619
6.6,90.0000000000002,-78,-5.64573002045909,-13.9726574539315
6.6,90.0000000000002,-76,-5.22114150652095,-13.5581848773227
6.6,90.0000000000002,-74,-4.78751052244077,-13.1643121541526
6.6,90.0000000000002,-72,-4.34612164455459,-12.7918222360513
6.6,90.0000000000002,-70,-3.89828034720326,-12.4413428629703
6.6,90.0000000000002,-68,-3.4453041647069,-12.1134069598673
6.6,90.0000000000002,-66,-2.98851580028856,-11.8084985253905
6.6,90.0000000000002,-64,-2.52923760523951,-11.5270876551232
6.6,90.0000000000002,-62,-2.06878695698684,-11.2696576271845
6.6,90.0000000000002,-60,-1.60847217508459,-11.0367263755609
6.6,90.0000000000002,-58,-1.14958871948422,-10.8288641961443
6.6,90.0000000000002,-56,-0.693415509509798,-10.6467091634346
6.6,90.0000000000002,-54,-0.241211281241253,-10.4909814681831
6.6,90.0000000000002,-52,0.205789036170127,-10.3624977046129
6.6,90.0000000000002,-50,0.646377898711455,-10.2621860306764
6.6,90.0000000000002,-48,1.07937862385081,-10.1911030915079
6.6,90.0000000000002,-46,1.50364869351534,-10.150453636043
6.6,90.0000000000002,-44,1.91808280979511,-10.1416138778223
6.6,90.0000000000002,-42,2.3216156372212,-10.166159870067
6.6,90.0000000000002,-40,2.71322418059184,-10.2259025109398
6.6,90.0000000000002,-38,3.09192976694547,-10.3229313137954
6.6,90.0000000000002,-36,3.4567996216813,-10.4596698426691
6.6,90.0000000000002,-34,3.80694804962299,-10.6389468423307
6.6,90.0000000000002,-32,4.14153725010006,-10.864088773851
6.6,90.0000000000002,-30,4.45977780954139,-11.1390420113876
6.6,90.0000000000002,-28,4.7609289248723,-11.4685368863669
6.6,90.0000000000002,-26,5.0442984159676,-11.8583119847941
6.6,90.0000000000002,-24,5.30924258579433,-12.3154272233401
6.6,90.0000000000002,-22,5.55516598329769,-12.8487112285749
6.6,90.0000000000002,-20,5.78152111740202,-13.4694181566003
6.6,90.0000000000002,-18,5.98780816169517,-14.1922228916215
6.6,90.0000000000002,-16,6.1735746794288,-15.0367862115188
6.6,90.0000000000002,-14,6.33841538830955,-16.030328986194
6.6,90.0000000000002,-12,6.48197197494158,-17.2121037616186
6.6,90.0000000000002,-10,6.60393296029026,-18.6417098613322
6.6,90.0000000000002,-8,6.70403361055349,-20.4159581204338
6.6,90.0000000000002,-6,6.78205588254484,-22.7071603179716
6.6,90.0000000000002,-4,6.83782838914425,-25.8635074648308
6.6,90.0000000000002,-2,6.87122636846353,-30.7006874153524
6.6,90.0000000000002,0,6.8821716399327,-37.3314698290102
6.6,90.0000000000002,2,6.87063253132643,-32.1277994445146
6.6,90.0000000000002,4,6.83662376260523,-26.7266320859936
6.6,90.0000000000002,6,6.78020627515724,-23.2941167757445
6.6,90.0000000000002,8,6.70148699844933,-20.8492001644901
6.6,90.0000000000002,10,6.60061855013311,-18.9772732715301
6.6,90.0000000000002,12,6.47779887024216,-17.479935337375
6.6,90.0000000000002,14,6.33327079522099,-16.2484663233579
6.6,90.0000000000002,16,6.16732158310362,-15.2171619107014
6.6,90.0000000000002,18,5.98028240714111,-14.343363954778
6.6,90.0000000000002,20,5.77252784144889,-13.5978287230415
6.6,90.0000000000002,22,5.54447536862358,-12.9596335143211
6.6,90.0000000000002,24,5.29658494551114,-12.4132822079421
6.6,90.0000000000002,26,5.0293586690616,-11.9469629107484
6.6,90.0000000000002,28,4.74334058907866,-11.5514486597921
6.6,90.0000000000002,30,4.43911671820735,-11.2193763139077
6.6,90.0000000000002,32,4.11731529119764,-10.9447578766122
6.6,90.0000000000002,34,3.77860732481183,-10.7226401697536
6.6,90.0000000000002,36,3.42370752617063,-10.5488623633706
6.6,90.0000000000002,38,3.05337559032804,-10.4198799567389
6.6,90.0000000000002,40,2.66841791691215,-10.3326350609616
6.6,90.0000000000002,42,2.26968976028755,-10.2844596821327
6.6,90.0000000000002,44,1.85809780745908,-10.2730029854696
6.6,90.0000000000002,46,1.43460315250778,-10.2961762595549
6.6,90.0000000000002,48,1.00022460553037,-10.352111085878
6.6,90.0000000000002,50,0.556042237851605,-10.4391274019927
6.6,90.0000000000002,52,0.1032010239994,-10.5557089394868
6.6,90.0000000000002,54,-0.357085604735269,-10.7004840527267
6.6,90.0000000000002,56,-0.82353252922151,-10.8722103142341
6.6,90.0000000000002,58,-1.29478031838827,-11.069761490237
6.6,90.0000000000002,60,-1.76939354635789,-11.2921156581808
6.6,90.0000000000002,62,-2.24586043157948,-11.5383433060473
6.6,90.0000000000002,64,-2.7225942192171,-11.8075942709394
6.6,90.0000000000002,66,-3.1979367599037,-12.0990823342802
6.6,90.0000000000002,68,-3.67016475907853,-12.4120661910049
6.6,90.0000000000002,70,-4.13749918008113,-12.7458253453028
6.6,90.0000000000002,72,-4.59811828015747,-13.0996292510546
6.6,90.0000000000002,74,-5.0501747405412,-13.4726977114591
6.6,90.0000000000002,76,-5.49181731706975,-13.8641501934763
6.6,90.0000000000002,78,-5.92121737959514,-14.2729413408611
6.6,90.0000000000002,80,-6.33660061339682,-14.6977796794343
6.6,90.0000000000002,82,-6.73628400239611,-15.1370264850253
6.6,90.0000000000002,84,-7.11871797369025,-15.5885723591191
6.6,90.0000000000002,86,-7.48253322596964,-16.0496907751375
6.6,90.0000000000002,88,-7.82659127112051,-16.5168715407166
6.6,90.0000000000002,90,-8.15003709541015,-16.9856438545035
6.6,90.0000000000002,92,-8.45235164369152,-17.4504095490518
6.6,90.0000000000002,94,-8.73340114924699,-17.9043227056227
6.6,90.0000000000002,96,-8.99347982214196,-18.3392705865042
6.6,90.0000000000002,98,-9.23334223877645,-18.7460271262803
6.6,90.0000000000002,100,-9.45422208640708,-19.1146524983765
6.6,90.0000000000002,102,-9.65783477056828,-19.4351842850495
6.6,90.0000000000002,104,-9.846362733016,-19.698594848882
6.6,90.0000000000002,106,-10.0224239702971,-19.8978824868025
6.6,90.0000000000002,108,-10.1890259167133,-20.0290609835932
6.6,90.0000000000002,110,-10.3495082692866,-20.0917776180887
6.6,90.0000000000002,112,-10.5074792537325,-20.0893696996967
6.6,90.0000000000002,114,-10.6667501426963,-20.0283444084387
6.6,90.0000000000002,116,-10.8312725576315,-19.9174493992151
6.6,90.0000000000002,118,-11.0050823410735,-19.7665996511945
6.6,90.0000000000002,120,-11.192252763851,-19.5859073986663
6.6,90.0000000000002,122,-11.3968587221592,-19.3849651546148
6.6,90.0000000000002,124,-11.6229525302829,-19.1724218476168
6.6,90.0000000000002,126,-11.8745510058187,-18.9558143075818
6.6,90.0000000000002,128,-12.1556327789245,-18.74158220877
6.6,90.0000000000002,130,-12.4701440637616,-18.5351933032929
6.6,90.0000000000002,132,-12.8220103612921,-18.3413209175705
6.6,90.0000000000002,134,-13.2151504796807,-18.1640347511551
6.6,90.0000000000002,136,-13.6534874906465,-18.0069825519769
6.6,90.0000000000002,138,-14.140948196354,-17.8735522413809
6.6,90.0000000000002,140,-14.681437393381,-17.7670118275636
6.6,90.0000000000002,142,-15.2787640770145,-17.6906290736786
6.6,90.0000000000002,144,-15.9364810711912,-17.6477755101092
6.6,90.0000000000002,146,-16.6575731788431,-17.6420209062443
6.6,90.0000000000002,148,-17.4438857991999,-17.6772254104022
6.6,90.0000000000002,150,-18.2951197481946,-17.7576377296274
6.6,90.0000000000002,152,-19.2071304186513,-17.8880094029038
6.6,90.0000000000002,154,-20.1691985752383,-18.0737379436564
6.6,90.0000000000002,156,-21.1600369404262,-18.3210561513689
6.6,90.0000000000002,158,-22.1429662805499,-18.6372924859269
6.6,90.0000000000002,160,-23.0626278477721,-19.0312403360155
6.6,90.0000000000002,162,-23.8488488442823,-19.5136965906852
6.6,90.0000000000002,164,-24.4342820265808,-20.0982706687489
6.6,90.0000000000002,166,-24.7833372920033,-20.8026419447174
6.6,90.0000000000002,168,-24.9128766838321,-21.650596213548
6.6,90.0000000000002,170,-24.8853182783375,-22.6754963899178
6.6,90.0000000000002,172,-24.7811517426426,-23.9265919270229
6.6,90.0000000000002,174,-24.6742061847774,-25.4814934261901
6.6,90.0000000000002,176,-24.6213961748926,-27.4738043789378
6.6,90.0000000000002,178,-24.663474880303,-30.1651804471925
6.6,90.0000000000002,180,-24.8298421218815,-34.1887788945712
